T31C8 000:003.322   SEGGER J-Link V8.10 Log File
T31C8 000:003.411   DLL Compiled: Sep 26 2024 08:34:01
T31C8 000:003.415   Logging started @ 2026-06-24 01:35
T31C8 000:003.419   Process: D:\keil\keil5\UV4\UV4.exe
T31C8 000:003.424 - 3.422ms
T31C8 000:003.430 JLINK_SetWarnOutHandler(...)
T31C8 000:003.434 - 0.005ms
T31C8 000:003.438 JLINK_OpenEx(...)
T31C8 000:005.568   Firmware: J-Link V9 compiled May  7 2021 16:26:12
T31C8 000:007.059   Firmware: J-Link V9 compiled May  7 2021 16:26:12
T31C8 000:007.192   Decompressing FW timestamp took 107 us
T31C8 000:014.854   Hardware: V9.40
T31C8 000:014.865   S/N: 69409225
T31C8 000:014.870   OEM: SEGGER
T31C8 000:014.876   Feature(s): RDI, GDB, FlashDL, FlashBP, JFlash
T31C8 000:015.341   Bootloader: (FW returned invalid version)
T31C8 000:016.094   TELNET listener socket opened on port 19021
T31C8 000:016.159   WEBSRV WEBSRV_Init(): Starting webserver thread(s)
T31C8 000:016.263   WEBSRV Webserver running on local port 19080
T31C8 000:016.339   Looking for J-Link GUI Server exe at: D:\keil\keil5\ARM\Segger\JLinkGUIServer.exe
T31C8 000:016.420   Looking for J-Link GUI Server exe at: C:\Program Files\SEGGER\JLink_V810\JLinkGUIServer.exe
T31C8 000:016.446   Forking J-Link GUI Server: C:\Program Files\SEGGER\JLink_V810\JLinkGUIServer.exe
T31C8 000:027.820   J-Link GUI Server info: "J-Link GUI server V8.10 "
T31C8 000:029.378 - 25.930ms returns "O.K."
T31C8 000:029.405 JLINK_GetEmuCaps()
T31C8 000:029.411 - 0.005ms returns 0xB9FF7BBF
T31C8 000:029.417 JLINK_TIF_GetAvailable(...)
T31C8 000:029.556 - 0.139ms
T31C8 000:029.564 JLINK_SetErrorOutHandler(...)
T31C8 000:029.567 - 0.003ms
T31C8 000:029.585 JLINK_ExecCommand("ProjectFile = "C:\Users\GYKJ\Desktop\Dev_Share\TEST_STUDY\STM32Cube_FW_F0_V1.11.0_TEST_Bootloader\Projects\STM32F072B-Discovery\Templates_1.0_TEST_bootloader-A\MDK-ARM\JLinkSettings.ini"", ...). 
T31C8 000:039.206   Ref file found at: D:\keil\keil5\ARM\Segger\JLinkDevices.ref
T31C8 000:039.287   REF file references invalid XML file: C:\Program Files\SEGGER\JLink_V810\JLinkDevices.xml
T31C8 000:040.127 - 10.543ms returns 0x00
T31C8 000:041.123 JLINK_ExecCommand("Device = STM32F072RBTx", ...). 
T31C8 000:042.668   Device "STM32F072RB" selected.
T31C8 000:042.888 - 1.751ms returns 0x00
T31C8 000:042.900 JLINK_ExecCommand("DisableConnectionTimeout", ...). 
T31C8 000:042.907   ERROR: Unknown command
T31C8 000:042.912 - 0.007ms returns 0x01
T31C8 000:042.918 JLINK_GetHardwareVersion()
T31C8 000:042.922 - 0.004ms returns 94000
T31C8 000:042.926 JLINK_GetDLLVersion()
T31C8 000:042.930 - 0.003ms returns 81000
T31C8 000:042.936 JLINK_GetOEMString(...)
T31C8 000:042.941 JLINK_GetFirmwareString(...)
T31C8 000:042.945 - 0.004ms
T31C8 000:045.589 JLINK_GetDLLVersion()
T31C8 000:045.603 - 0.013ms returns 81000
T31C8 000:045.607 JLINK_GetCompileDateTime()
T31C8 000:045.611 - 0.004ms
T31C8 000:046.977 JLINK_GetFirmwareString(...)
T31C8 000:046.988 - 0.010ms
T31C8 000:048.231 JLINK_GetHardwareVersion()
T31C8 000:048.240 - 0.008ms returns 94000
T31C8 000:049.413 JLINK_GetSN()
T31C8 000:049.422 - 0.009ms returns 69409225
T31C8 000:050.592 JLINK_GetOEMString(...)
T31C8 000:052.915 JLINK_TIF_Select(JLINKARM_TIF_SWD)
T31C8 000:053.584 - 0.668ms returns 0x00
T31C8 000:053.597 JLINK_HasError()
T31C8 000:053.609 JLINK_SetSpeed(5000)
T31C8 000:053.720 - 0.112ms
T31C8 000:053.733 JLINK_GetId()
T31C8 000:055.329   InitTarget() start
T31C8 000:055.343    J-Link Script File: Executing InitTarget()
T31C8 000:056.656   SWD selected. Executing JTAG -> SWD switching sequence.
T31C8 000:059.588   DAP initialized successfully.
T31C8 000:066.690   InitTarget() end - Took 10.0ms
T31C8 000:068.477   Found SW-DP with ID 0x0BB11477
T31C8 000:071.564   DPIDR: 0x0BB11477
T31C8 000:072.699   CoreSight SoC-400 or earlier
T31C8 000:073.851   Scanning AP map to find all available APs
T31C8 000:075.633   AP[1]: Stopped AP scan as end of AP map has been reached
T31C8 000:076.810   AP[0]: AHB-AP (IDR: 0x04770021, ADDR: 0x00000000)
T31C8 000:077.986   Iterating through AP map to find AHB-AP to use
T31C8 000:080.508   AP[0]: Core found
T31C8 000:081.808   AP[0]: AHB-AP ROM base: 0xE00FF000
T31C8 000:083.631   CPUID register: 0x410CC200. Implementer code: 0x41 (ARM)
T31C8 000:084.982   Found Cortex-M0 r0p0, Little endian.
T31C8 000:085.428   -- Max. mem block: 0x00010E60
T31C8 000:085.835   CPU_ReadMem(4 bytes @ 0xE000EDF0)
T31C8 000:086.284   CPU_ReadMem(4 bytes @ 0xE0002000)
T31C8 000:088.276   FPUnit: 4 code (BP) slots and 0 literal slots
T31C8 000:088.299   CPU_ReadMem(4 bytes @ 0xE000EDFC)
T31C8 000:088.730   CPU_WriteMem(4 bytes @ 0xE000EDFC)
T31C8 000:089.103   CPU_ReadMem(4 bytes @ 0xE0001000)
T31C8 000:089.435   CPU_WriteMem(4 bytes @ 0xE0001000)
T31C8 000:091.278   CoreSight components:
T31C8 000:092.556   ROMTbl[0] @ E00FF000
T31C8 000:092.570   CPU_ReadMem(64 bytes @ 0xE00FF000)
T31C8 000:093.322   CPU_ReadMem(32 bytes @ 0xE000EFE0)
T31C8 000:095.115   [0][0]: E000E000 CID B105E00D PID 000BB008 SCS
T31C8 000:095.127   CPU_ReadMem(32 bytes @ 0xE0001FE0)
T31C8 000:096.943   [0][1]: E0001000 CID B105E00D PID 000BB00A DWT
T31C8 000:096.962   CPU_ReadMem(32 bytes @ 0xE0002FE0)
T31C8 000:098.713   [0][2]: E0002000 CID B105E00D PID 000BB00B FPB
T31C8 000:099.006 - 45.272ms returns 0x0BB11477
T31C8 000:099.049 JLINK_GetDLLVersion()
T31C8 000:099.053 - 0.004ms returns 81000
T31C8 000:099.058 JLINK_CORE_GetFound()
T31C8 000:099.062 - 0.003ms returns 0x60000FF
T31C8 000:099.067 JLINK_GetDebugInfo(0x100 = JLINKARM_ROM_TABLE_ADDR_INDEX)
T31C8 000:099.071   Value=0xE00FF000
T31C8 000:099.076 - 0.009ms returns 0
T31C8 000:100.288 JLINK_GetDebugInfo(0x100 = JLINKARM_ROM_TABLE_ADDR_INDEX)
T31C8 000:100.296   Value=0xE00FF000
T31C8 000:100.302 - 0.013ms returns 0
T31C8 000:100.306 JLINK_GetDebugInfo(0x101 = JLINKARM_DEBUG_INFO_ETM_ADDR_INDEX)
T31C8 000:100.310   Value=0x00000000
T31C8 000:100.315 - 0.009ms returns 0
T31C8 000:100.324 JLINK_ReadMemEx(0xE0041FF0, 0x10 Bytes, Flags = 0x02000004)
T31C8 000:100.341   CPU_ReadMem(16 bytes @ 0xE0041FF0)
T31C8 000:100.728   Data:  00 00 00 00 00 00 00 00 00 00 00 00 00 00 00 00
T31C8 000:100.734 - 0.410ms returns 16 (0x10)
T31C8 000:100.740 JLINK_GetDebugInfo(0x102 = JLINKARM_DEBUG_INFO_MTB_ADDR_INDEX)
T31C8 000:100.743   Value=0x00000000
T31C8 000:100.748 - 0.009ms returns 0
T31C8 000:100.753 JLINK_GetDebugInfo(0x103 = JLINKARM_DEBUG_INFO_TPIU_ADDR_INDEX)
T31C8 000:100.756   Value=0x00000000
T31C8 000:100.761 - 0.009ms returns 0
T31C8 000:100.766 JLINK_GetDebugInfo(0x104 = JLINKARM_DEBUG_INFO_ITM_ADDR_INDEX)
T31C8 000:100.769   Value=0xE0000000
T31C8 000:100.774 - 0.008ms returns 0
T31C8 000:100.779 JLINK_GetDebugInfo(0x105 = JLINKARM_DEBUG_INFO_DWT_ADDR_INDEX)
T31C8 000:100.782   Value=0xE0001000
T31C8 000:100.787 - 0.008ms returns 0
T31C8 000:100.792 JLINK_GetDebugInfo(0x106 = JLINKARM_DEBUG_INFO_FPB_ADDR_INDEX)
T31C8 000:100.795   Value=0xE0002000
T31C8 000:100.800 - 0.008ms returns 0
T31C8 000:100.805 JLINK_GetDebugInfo(0x107 = JLINKARM_DEBUG_INFO_NVIC_ADDR_INDEX)
T31C8 000:100.808   Value=0xE000E000
T31C8 000:100.813 - 0.008ms returns 0
T31C8 000:100.818 JLINK_GetDebugInfo(0x10C = JLINKARM_DEBUG_INFO_DBG_ADDR_INDEX)
T31C8 000:100.821   Value=0xE000EDF0
T31C8 000:100.827 - 0.009ms returns 0
T31C8 000:100.832 JLINK_GetDebugInfo(0x01 = Unknown)
T31C8 000:100.835   Value=0x00000000
T31C8 000:100.840 - 0.009ms returns 0
T31C8 000:100.846 JLINK_ReadMemU32(0xE000ED00, 0x1 Items)
T31C8 000:100.851   CPU_ReadMem(4 bytes @ 0xE000ED00)
T31C8 000:101.109   Data:  00 C2 0C 41
T31C8 000:101.115   Debug reg: CPUID
T31C8 000:101.120 - 0.274ms returns 1 (0x1)
T31C8 000:101.126 JLINK_GetDebugInfo(0x10F = JLINKARM_DEBUG_INFO_HAS_CORTEX_M_SECURITY_EXT_INDEX)
T31C8 000:101.129   Value=0x00000000
T31C8 000:101.134 - 0.009ms returns 0
T31C8 000:101.140 JLINK_HasError()
T31C8 000:101.145 JLINK_SetResetType(JLINKARM_CM3_RESET_TYPE_NORMAL)
T31C8 000:101.149 - 0.004ms returns JLINKARM_CM3_RESET_TYPE_NORMAL
T31C8 000:101.154 JLINK_Reset()
T31C8 000:101.163   CPU is running
T31C8 000:101.169   CPU_WriteMem(4 bytes @ 0xE000EDF0)
T31C8 000:101.469   CPU is running
T31C8 000:101.476   CPU_WriteMem(4 bytes @ 0xE000EDFC)
T31C8 000:103.001   Reset: Halt core after reset via DEMCR.VC_CORERESET.
T31C8 000:104.622   Reset: Reset device via AIRCR.SYSRESETREQ.
T31C8 000:104.633   CPU is running
T31C8 000:104.641   CPU_WriteMem(4 bytes @ 0xE000ED0C)
T31C8 000:157.850   CPU_ReadMem(4 bytes @ 0xE000EDF0)
T31C8 000:158.297   CPU_ReadMem(4 bytes @ 0xE000EDF0)
T31C8 000:161.478   CPU_WriteMem(4 bytes @ 0xE000EDFC)
T31C8 000:167.286   CPU_ReadMem(4 bytes @ 0xE000EDF0)
T31C8 000:170.342   CPU_WriteMem(4 bytes @ 0xE0002000)
T31C8 000:170.644   CPU_ReadMem(4 bytes @ 0xE000EDFC)
T31C8 000:170.892   CPU_ReadMem(4 bytes @ 0xE0001000)
T31C8 000:171.139   CPU_WriteMem(4 bytes @ 0xE0001000)
T31C8 000:171.486 - 70.332ms
T31C8 000:171.502 JLINK_Halt()
T31C8 000:171.506 - 0.004ms returns 0x00
T31C8 000:171.512 JLINK_ReadMemU32(0xE000EDF0, 0x1 Items)
T31C8 000:171.521   CPU_ReadMem(4 bytes @ 0xE000EDF0)
T31C8 000:171.823   Data:  03 00 03 00
T31C8 000:171.830   Debug reg: DHCSR
T31C8 000:171.836 - 0.324ms returns 1 (0x1)
T31C8 000:171.843 JLINK_WriteU32(0xE000EDF0, 0xA05F0003)
T31C8 000:171.846   Debug reg: DHCSR
T31C8 000:172.123   CPU_WriteMem(4 bytes @ 0xE000EDF0)
T31C8 000:172.473 - 0.629ms returns 0 (0x00000000)
T31C8 000:172.484 JLINK_WriteU32(0xE000EDFC, 0x01000000)
T31C8 000:172.488   Debug reg: DEMCR
T31C8 000:172.495   CPU_WriteMem(4 bytes @ 0xE000EDFC)
T31C8 000:172.902 - 0.418ms returns 0 (0x00000000)
T31C8 000:177.907 JLINK_GetHWStatus(...)
T31C8 000:178.064 - 0.157ms returns 0
T31C8 000:183.978 JLINK_GetNumBPUnits(Type = 0xFFFFFF00)
T31C8 000:183.995 - 0.017ms returns 0x04
T31C8 000:184.000 JLINK_GetNumBPUnits(Type = 0xF0)
T31C8 000:184.004 - 0.004ms returns 0x2000
T31C8 000:184.009 JLINK_GetNumWPUnits()
T31C8 000:184.012 - 0.003ms returns 2
T31C8 000:187.386 JLINK_GetSpeed()
T31C8 000:187.397 - 0.011ms returns 4000
T31C8 000:189.584 JLINK_ReadMemU32(0xE000E004, 0x1 Items)
T31C8 000:189.607   CPU_ReadMem(4 bytes @ 0xE000E004)
T31C8 000:189.935   Data:  00 00 00 00
T31C8 000:189.947 - 0.362ms returns 1 (0x1)
T31C8 000:189.957 JLINK_Halt()
T31C8 000:189.961 - 0.004ms returns 0x00
T31C8 000:189.965 JLINK_IsHalted()
T31C8 000:189.970 - 0.004ms returns TRUE
T31C8 000:191.292 JLINK_WriteMem(0x20000000, 0x170 Bytes, ...)
T31C8 000:191.299   Data:  00 BE 0A E0 0D 78 2D 06 68 40 08 24 40 00 00 D3 ...
T31C8 000:191.524   CPU_WriteMem(368 bytes @ 0x20000000)
T31C8 000:193.860 - 2.568ms returns 0x170
T31C8 000:193.891 JLINK_HasError()
T31C8 000:193.900 JLINK_WriteReg(R0, 0x08000000)
T31C8 000:193.906 - 0.009ms returns 0
T31C8 000:193.910 JLINK_WriteReg(R1, 0x007A1200)
T31C8 000:193.914 - 0.004ms returns 0
T31C8 000:193.919 JLINK_WriteReg(R2, 0x00000001)
T31C8 000:193.923 - 0.003ms returns 0
T31C8 000:193.927 JLINK_WriteReg(R3, 0x00000000)
T31C8 000:193.931 - 0.003ms returns 0
T31C8 000:193.935 JLINK_WriteReg(R4, 0x00000000)
T31C8 000:193.939 - 0.003ms returns 0
T31C8 000:193.943 JLINK_WriteReg(R5, 0x00000000)
T31C8 000:193.947 - 0.003ms returns 0
T31C8 000:193.951 JLINK_WriteReg(R6, 0x00000000)
T31C8 000:193.955 - 0.003ms returns 0
T31C8 000:193.959 JLINK_WriteReg(R7, 0x00000000)
T31C8 000:193.963 - 0.003ms returns 0
T31C8 000:193.967 JLINK_WriteReg(R8, 0x00000000)
T31C8 000:193.971 - 0.003ms returns 0
T31C8 000:193.975 JLINK_WriteReg(R9, 0x2000016C)
T31C8 000:193.979 - 0.003ms returns 0
T31C8 000:193.983 JLINK_WriteReg(R10, 0x00000000)
T31C8 000:193.987 - 0.003ms returns 0
T31C8 000:193.991 JLINK_WriteReg(R11, 0x00000000)
T31C8 000:193.995 - 0.003ms returns 0
T31C8 000:193.999 JLINK_WriteReg(R12, 0x00000000)
T31C8 000:194.003 - 0.003ms returns 0
T31C8 000:194.008 JLINK_WriteReg(R13 (SP), 0x20001000)
T31C8 000:194.012 - 0.004ms returns 0
T31C8 000:194.016 JLINK_WriteReg(R14, 0x20000001)
T31C8 000:194.020 - 0.003ms returns 0
T31C8 000:194.025 JLINK_WriteReg(R15 (PC), 0x20000038)
T31C8 000:194.029 - 0.005ms returns 0
T31C8 000:194.034 JLINK_WriteReg(XPSR, 0x01000000)
T31C8 000:194.041 - 0.007ms returns 0
T31C8 000:194.047 JLINK_WriteReg(MSP, 0x20001000)
T31C8 000:194.051 - 0.003ms returns 0
T31C8 000:194.055 JLINK_WriteReg(PSP, 0x20001000)
T31C8 000:194.059 - 0.003ms returns 0
T31C8 000:194.063 JLINK_WriteReg(CFBP, 0x00000000)
T31C8 000:194.067 - 0.003ms returns 0
T31C8 000:194.071 JLINK_SetBPEx(Addr = 0x20000000, Type = 0xFFFFFFF2)
T31C8 000:194.078   CPU_ReadMem(2 bytes @ 0x20000000)
T31C8 000:194.435 - 0.363ms returns 0x00000001
T31C8 000:194.440 JLINK_Go()
T31C8 000:194.446   CPU_WriteMem(2 bytes @ 0x20000000)
T31C8 000:194.750   CPU_ReadMem(4 bytes @ 0xE0001000)
T31C8 000:195.030   CPU_WriteMem(4 bytes @ 0xE0001000)
T31C8 000:195.307   CPU_WriteMem(4 bytes @ 0xE0002008)
T31C8 000:195.313   CPU_WriteMem(4 bytes @ 0xE000200C)
T31C8 000:195.318   CPU_WriteMem(4 bytes @ 0xE0002010)
T31C8 000:195.323   CPU_WriteMem(4 bytes @ 0xE0002014)
T31C8 000:196.323   CPU_WriteMem(4 bytes @ 0xE0001004)
T31C8 000:200.522   Memory map 'after startup completion point' is active
T31C8 000:200.543 - 6.102ms
T31C8 000:200.554 JLINK_IsHalted()
T31C8 000:203.110   CPU_ReadMem(2 bytes @ 0x20000000)
T31C8 000:203.434 - 2.880ms returns TRUE
T31C8 000:203.442 JLINK_ReadReg(R15 (PC))
T31C8 000:203.447 - 0.005ms returns 0x20000000
T31C8 000:203.451 JLINK_ClrBPEx(BPHandle = 0x00000001)
T31C8 000:203.456 - 0.004ms returns 0x00
T31C8 000:203.460 JLINK_ReadReg(R0)
T31C8 000:203.464 - 0.003ms returns 0x00000000
T31C8 000:203.651 JLINK_HasError()
T31C8 000:203.658 JLINK_WriteReg(R0, 0x0800A000)
T31C8 000:203.663 - 0.004ms returns 0
T31C8 000:203.667 JLINK_WriteReg(R1, 0x00000800)
T31C8 000:203.671 - 0.003ms returns 0
T31C8 000:203.675 JLINK_WriteReg(R2, 0x000000FF)
T31C8 000:203.679 - 0.003ms returns 0
T31C8 000:203.683 JLINK_WriteReg(R3, 0x00000000)
T31C8 000:203.687 - 0.003ms returns 0
T31C8 000:203.691 JLINK_WriteReg(R4, 0x00000000)
T31C8 000:203.695 - 0.003ms returns 0
T31C8 000:203.699 JLINK_WriteReg(R5, 0x00000000)
T31C8 000:203.703 - 0.003ms returns 0
T31C8 000:203.707 JLINK_WriteReg(R6, 0x00000000)
T31C8 000:203.711 - 0.003ms returns 0
T31C8 000:203.715 JLINK_WriteReg(R7, 0x00000000)
T31C8 000:203.719 - 0.003ms returns 0
T31C8 000:203.723 JLINK_WriteReg(R8, 0x00000000)
T31C8 000:203.727 - 0.003ms returns 0
T31C8 000:203.731 JLINK_WriteReg(R9, 0x2000016C)
T31C8 000:203.734 - 0.003ms returns 0
T31C8 000:203.739 JLINK_WriteReg(R10, 0x00000000)
T31C8 000:203.742 - 0.003ms returns 0
T31C8 000:203.747 JLINK_WriteReg(R11, 0x00000000)
T31C8 000:203.750 - 0.003ms returns 0
T31C8 000:203.755 JLINK_WriteReg(R12, 0x00000000)
T31C8 000:203.758 - 0.003ms returns 0
T31C8 000:203.763 JLINK_WriteReg(R13 (SP), 0x20001000)
T31C8 000:203.767 - 0.004ms returns 0
T31C8 000:203.771 JLINK_WriteReg(R14, 0x20000001)
T31C8 000:203.775 - 0.003ms returns 0
T31C8 000:203.779 JLINK_WriteReg(R15 (PC), 0x20000020)
T31C8 000:203.783 - 0.003ms returns 0
T31C8 000:203.787 JLINK_WriteReg(XPSR, 0x01000000)
T31C8 000:203.791 - 0.003ms returns 0
T31C8 000:203.795 JLINK_WriteReg(MSP, 0x20001000)
T31C8 000:203.799 - 0.003ms returns 0
T31C8 000:203.803 JLINK_WriteReg(PSP, 0x20001000)
T31C8 000:203.807 - 0.003ms returns 0
T31C8 000:203.811 JLINK_WriteReg(CFBP, 0x00000000)
T31C8 000:203.814 - 0.003ms returns 0
T31C8 000:203.819 JLINK_SetBPEx(Addr = 0x20000000, Type = 0xFFFFFFF2)
T31C8 000:203.824 - 0.005ms returns 0x00000002
T31C8 000:203.828 JLINK_Go()
T31C8 000:203.836   CPU_ReadMem(4 bytes @ 0xE0001000)
T31C8 000:206.631 - 2.802ms
T31C8 000:206.636 JLINK_IsHalted()
T31C8 000:209.172   CPU_ReadMem(2 bytes @ 0x20000000)
T31C8 000:209.473 - 2.837ms returns TRUE
T31C8 000:209.479 JLINK_ReadReg(R15 (PC))
T31C8 000:209.484 - 0.004ms returns 0x20000000
T31C8 000:209.488 JLINK_ClrBPEx(BPHandle = 0x00000002)
T31C8 000:209.492 - 0.004ms returns 0x00
T31C8 000:209.496 JLINK_ReadReg(R0)
T31C8 000:209.500 - 0.003ms returns 0x00000001
T31C8 000:209.505 JLINK_HasError()
T31C8 000:209.509 JLINK_WriteReg(R0, 0x0800A000)
T31C8 000:209.514 - 0.004ms returns 0
T31C8 000:209.518 JLINK_WriteReg(R1, 0x00000800)
T31C8 000:209.576 - 0.058ms returns 0
T31C8 000:209.580 JLINK_WriteReg(R2, 0x000000FF)
T31C8 000:209.584 - 0.003ms returns 0
T31C8 000:209.588 JLINK_WriteReg(R3, 0x00000000)
T31C8 000:209.592 - 0.003ms returns 0
T31C8 000:209.596 JLINK_WriteReg(R4, 0x00000000)
T31C8 000:209.600 - 0.003ms returns 0
T31C8 000:209.604 JLINK_WriteReg(R5, 0x00000000)
T31C8 000:209.608 - 0.003ms returns 0
T31C8 000:209.612 JLINK_WriteReg(R6, 0x00000000)
T31C8 000:209.616 - 0.003ms returns 0
T31C8 000:209.620 JLINK_WriteReg(R7, 0x00000000)
T31C8 000:209.624 - 0.003ms returns 0
T31C8 000:209.628 JLINK_WriteReg(R8, 0x00000000)
T31C8 000:209.632 - 0.003ms returns 0
T31C8 000:209.636 JLINK_WriteReg(R9, 0x2000016C)
T31C8 000:209.640 - 0.003ms returns 0
T31C8 000:209.644 JLINK_WriteReg(R10, 0x00000000)
T31C8 000:209.648 - 0.003ms returns 0
T31C8 000:209.652 JLINK_WriteReg(R11, 0x00000000)
T31C8 000:209.656 - 0.003ms returns 0
T31C8 000:209.660 JLINK_WriteReg(R12, 0x00000000)
T31C8 000:209.664 - 0.003ms returns 0
T31C8 000:209.668 JLINK_WriteReg(R13 (SP), 0x20001000)
T31C8 000:209.672 - 0.003ms returns 0
T31C8 000:209.676 JLINK_WriteReg(R14, 0x20000001)
T31C8 000:209.680 - 0.003ms returns 0
T31C8 000:209.684 JLINK_WriteReg(R15 (PC), 0x200000B8)
T31C8 000:209.688 - 0.003ms returns 0
T31C8 000:209.692 JLINK_WriteReg(XPSR, 0x01000000)
T31C8 000:209.696 - 0.003ms returns 0
T31C8 000:209.700 JLINK_WriteReg(MSP, 0x20001000)
T31C8 000:209.704 - 0.003ms returns 0
T31C8 000:209.708 JLINK_WriteReg(PSP, 0x20001000)
T31C8 000:209.712 - 0.003ms returns 0
T31C8 000:209.716 JLINK_WriteReg(CFBP, 0x00000000)
T31C8 000:209.719 - 0.003ms returns 0
T31C8 000:209.724 JLINK_SetBPEx(Addr = 0x20000000, Type = 0xFFFFFFF2)
T31C8 000:209.728 - 0.004ms returns 0x00000003
T31C8 000:209.732 JLINK_Go()
T31C8 000:209.739   CPU_ReadMem(4 bytes @ 0xE0001000)
T31C8 000:212.453 - 2.720ms
T31C8 000:212.460 JLINK_IsHalted()
T31C8 000:212.824 - 0.363ms returns FALSE
T31C8 000:212.833 JLINK_HasError()
T31C8 000:219.356 JLINK_IsHalted()
T31C8 000:219.782 - 0.426ms returns FALSE
T31C8 000:219.788 JLINK_HasError()
T31C8 000:221.831 JLINK_IsHalted()
T31C8 000:222.247 - 0.416ms returns FALSE
T31C8 000:222.252 JLINK_HasError()
T31C8 000:223.805 JLINK_IsHalted()
T31C8 000:224.282 - 0.476ms returns FALSE
T31C8 000:224.287 JLINK_HasError()
T31C8 000:226.324 JLINK_IsHalted()
T31C8 000:226.742 - 0.418ms returns FALSE
T31C8 000:226.748 JLINK_HasError()
T31C8 000:228.845 JLINK_IsHalted()
T31C8 000:229.174 - 0.329ms returns FALSE
T31C8 000:229.183 JLINK_HasError()
T31C8 000:230.799 JLINK_IsHalted()
T31C8 000:231.272 - 0.473ms returns FALSE
T31C8 000:231.306 JLINK_HasError()
T31C8 000:232.812 JLINK_IsHalted()
T31C8 000:233.247 - 0.435ms returns FALSE
T31C8 000:233.252 JLINK_HasError()
T31C8 000:235.303 JLINK_IsHalted()
T31C8 000:238.011   CPU_ReadMem(2 bytes @ 0x20000000)
T31C8 000:238.325 - 3.022ms returns TRUE
T31C8 000:238.332 JLINK_ReadReg(R15 (PC))
T31C8 000:238.338 - 0.006ms returns 0x20000000
T31C8 000:238.343 JLINK_ClrBPEx(BPHandle = 0x00000003)
T31C8 000:238.346 - 0.004ms returns 0x00
T31C8 000:238.351 JLINK_ReadReg(R0)
T31C8 000:238.355 - 0.003ms returns 0x00000000
T31C8 000:238.707 JLINK_HasError()
T31C8 000:238.717 JLINK_WriteReg(R0, 0x0800A800)
T31C8 000:238.722 - 0.005ms returns 0
T31C8 000:238.726 JLINK_WriteReg(R1, 0x00000800)
T31C8 000:238.730 - 0.003ms returns 0
T31C8 000:238.734 JLINK_WriteReg(R2, 0x000000FF)
T31C8 000:238.737 - 0.003ms returns 0
T31C8 000:238.741 JLINK_WriteReg(R3, 0x00000000)
T31C8 000:238.745 - 0.003ms returns 0
T31C8 000:238.749 JLINK_WriteReg(R4, 0x00000000)
T31C8 000:238.753 - 0.003ms returns 0
T31C8 000:238.757 JLINK_WriteReg(R5, 0x00000000)
T31C8 000:238.760 - 0.003ms returns 0
T31C8 000:238.764 JLINK_WriteReg(R6, 0x00000000)
T31C8 000:238.768 - 0.003ms returns 0
T31C8 000:238.772 JLINK_WriteReg(R7, 0x00000000)
T31C8 000:238.775 - 0.003ms returns 0
T31C8 000:238.779 JLINK_WriteReg(R8, 0x00000000)
T31C8 000:238.783 - 0.004ms returns 0
T31C8 000:238.792 JLINK_WriteReg(R9, 0x2000016C)
T31C8 000:238.798 - 0.006ms returns 0
T31C8 000:238.802 JLINK_WriteReg(R10, 0x00000000)
T31C8 000:238.806 - 0.003ms returns 0
T31C8 000:238.809 JLINK_WriteReg(R11, 0x00000000)
T31C8 000:238.813 - 0.003ms returns 0
T31C8 000:238.817 JLINK_WriteReg(R12, 0x00000000)
T31C8 000:238.821 - 0.003ms returns 0
T31C8 000:238.825 JLINK_WriteReg(R13 (SP), 0x20001000)
T31C8 000:238.828 - 0.003ms returns 0
T31C8 000:238.832 JLINK_WriteReg(R14, 0x20000001)
T31C8 000:238.836 - 0.003ms returns 0
T31C8 000:238.849 JLINK_WriteReg(R15 (PC), 0x20000020)
T31C8 000:238.853 - 0.012ms returns 0
T31C8 000:238.857 JLINK_WriteReg(XPSR, 0x01000000)
T31C8 000:238.860 - 0.003ms returns 0
T31C8 000:238.864 JLINK_WriteReg(MSP, 0x20001000)
T31C8 000:238.868 - 0.003ms returns 0
T31C8 000:238.872 JLINK_WriteReg(PSP, 0x20001000)
T31C8 000:238.875 - 0.003ms returns 0
T31C8 000:238.879 JLINK_WriteReg(CFBP, 0x00000000)
T31C8 000:238.883 - 0.003ms returns 0
T31C8 000:238.888 JLINK_SetBPEx(Addr = 0x20000000, Type = 0xFFFFFFF2)
T31C8 000:238.892 - 0.004ms returns 0x00000004
T31C8 000:238.896 JLINK_Go()
T31C8 000:238.906   CPU_ReadMem(4 bytes @ 0xE0001000)
T31C8 000:241.925 - 3.027ms
T31C8 000:241.938 JLINK_IsHalted()
T31C8 000:244.661   CPU_ReadMem(2 bytes @ 0x20000000)
T31C8 000:245.047 - 3.108ms returns TRUE
T31C8 000:245.052 JLINK_ReadReg(R15 (PC))
T31C8 000:245.056 - 0.004ms returns 0x20000000
T31C8 000:245.060 JLINK_ClrBPEx(BPHandle = 0x00000004)
T31C8 000:245.064 - 0.003ms returns 0x00
T31C8 000:245.068 JLINK_ReadReg(R0)
T31C8 000:245.072 - 0.003ms returns 0x00000001
T31C8 000:245.076 JLINK_HasError()
T31C8 000:245.080 JLINK_WriteReg(R0, 0x0800A800)
T31C8 000:245.084 - 0.003ms returns 0
T31C8 000:245.088 JLINK_WriteReg(R1, 0x00000800)
T31C8 000:245.091 - 0.003ms returns 0
T31C8 000:245.095 JLINK_WriteReg(R2, 0x000000FF)
T31C8 000:245.099 - 0.003ms returns 0
T31C8 000:245.103 JLINK_WriteReg(R3, 0x00000000)
T31C8 000:245.106 - 0.003ms returns 0
T31C8 000:245.110 JLINK_WriteReg(R4, 0x00000000)
T31C8 000:245.114 - 0.003ms returns 0
T31C8 000:245.118 JLINK_WriteReg(R5, 0x00000000)
T31C8 000:245.122 - 0.003ms returns 0
T31C8 000:245.126 JLINK_WriteReg(R6, 0x00000000)
T31C8 000:245.129 - 0.003ms returns 0
T31C8 000:245.133 JLINK_WriteReg(R7, 0x00000000)
T31C8 000:245.137 - 0.003ms returns 0
T31C8 000:245.141 JLINK_WriteReg(R8, 0x00000000)
T31C8 000:245.144 - 0.003ms returns 0
T31C8 000:245.148 JLINK_WriteReg(R9, 0x2000016C)
T31C8 000:245.152 - 0.003ms returns 0
T31C8 000:245.156 JLINK_WriteReg(R10, 0x00000000)
T31C8 000:245.159 - 0.003ms returns 0
T31C8 000:245.163 JLINK_WriteReg(R11, 0x00000000)
T31C8 000:245.167 - 0.003ms returns 0
T31C8 000:245.171 JLINK_WriteReg(R12, 0x00000000)
T31C8 000:245.174 - 0.003ms returns 0
T31C8 000:245.178 JLINK_WriteReg(R13 (SP), 0x20001000)
T31C8 000:245.182 - 0.003ms returns 0
T31C8 000:245.186 JLINK_WriteReg(R14, 0x20000001)
T31C8 000:245.189 - 0.003ms returns 0
T31C8 000:245.194 JLINK_WriteReg(R15 (PC), 0x200000B8)
T31C8 000:245.197 - 0.003ms returns 0
T31C8 000:245.201 JLINK_WriteReg(XPSR, 0x01000000)
T31C8 000:245.205 - 0.003ms returns 0
T31C8 000:245.209 JLINK_WriteReg(MSP, 0x20001000)
T31C8 000:245.212 - 0.003ms returns 0
T31C8 000:245.216 JLINK_WriteReg(PSP, 0x20001000)
T31C8 000:245.221 - 0.004ms returns 0
T31C8 000:245.225 JLINK_WriteReg(CFBP, 0x00000000)
T31C8 000:245.228 - 0.003ms returns 0
T31C8 000:245.233 JLINK_SetBPEx(Addr = 0x20000000, Type = 0xFFFFFFF2)
T31C8 000:245.237 - 0.004ms returns 0x00000005
T31C8 000:245.241 JLINK_Go()
T31C8 000:245.246   CPU_ReadMem(4 bytes @ 0xE0001000)
T31C8 000:248.311 - 3.070ms
T31C8 000:248.320 JLINK_IsHalted()
T31C8 000:248.593 - 0.272ms returns FALSE
T31C8 000:248.598 JLINK_HasError()
T31C8 000:250.618 JLINK_IsHalted()
T31C8 000:250.955 - 0.336ms returns FALSE
T31C8 000:250.963 JLINK_HasError()
T31C8 000:252.857 JLINK_IsHalted()
T31C8 000:253.272 - 0.415ms returns FALSE
T31C8 000:253.276 JLINK_HasError()
T31C8 000:254.855 JLINK_IsHalted()
T31C8 000:255.247 - 0.392ms returns FALSE
T31C8 000:255.255 JLINK_HasError()
T31C8 000:257.305 JLINK_IsHalted()
T31C8 000:257.752 - 0.448ms returns FALSE
T31C8 000:257.756 JLINK_HasError()
T31C8 000:259.769 JLINK_IsHalted()
T31C8 000:260.246 - 0.478ms returns FALSE
T31C8 000:260.251 JLINK_HasError()
T31C8 000:261.766 JLINK_IsHalted()
T31C8 000:262.161 - 0.395ms returns FALSE
T31C8 000:262.167 JLINK_HasError()
T31C8 000:263.777 JLINK_IsHalted()
T31C8 000:264.248 - 0.470ms returns FALSE
T31C8 000:264.253 JLINK_HasError()
T31C8 000:265.768 JLINK_IsHalted()
T31C8 000:266.246 - 0.480ms returns FALSE
T31C8 000:266.251 JLINK_HasError()
T31C8 000:268.289 JLINK_IsHalted()
T31C8 000:268.701 - 0.413ms returns FALSE
T31C8 000:268.706 JLINK_HasError()
T31C8 000:270.343 JLINK_IsHalted()
T31C8 000:273.034   CPU_ReadMem(2 bytes @ 0x20000000)
T31C8 000:273.436 - 3.093ms returns TRUE
T31C8 000:273.441 JLINK_ReadReg(R15 (PC))
T31C8 000:273.446 - 0.005ms returns 0x20000000
T31C8 000:273.450 JLINK_ClrBPEx(BPHandle = 0x00000005)
T31C8 000:273.454 - 0.004ms returns 0x00
T31C8 000:273.459 JLINK_ReadReg(R0)
T31C8 000:273.463 - 0.003ms returns 0x00000000
T31C8 000:273.758 JLINK_HasError()
T31C8 000:273.764 JLINK_WriteReg(R0, 0x0800B000)
T31C8 000:273.769 - 0.004ms returns 0
T31C8 000:273.773 JLINK_WriteReg(R1, 0x00000800)
T31C8 000:273.777 - 0.003ms returns 0
T31C8 000:273.781 JLINK_WriteReg(R2, 0x000000FF)
T31C8 000:273.784 - 0.003ms returns 0
T31C8 000:273.788 JLINK_WriteReg(R3, 0x00000000)
T31C8 000:273.792 - 0.003ms returns 0
T31C8 000:273.796 JLINK_WriteReg(R4, 0x00000000)
T31C8 000:273.800 - 0.003ms returns 0
T31C8 000:273.804 JLINK_WriteReg(R5, 0x00000000)
T31C8 000:273.807 - 0.003ms returns 0
T31C8 000:273.811 JLINK_WriteReg(R6, 0x00000000)
T31C8 000:273.815 - 0.003ms returns 0
T31C8 000:273.819 JLINK_WriteReg(R7, 0x00000000)
T31C8 000:273.822 - 0.003ms returns 0
T31C8 000:273.826 JLINK_WriteReg(R8, 0x00000000)
T31C8 000:273.830 - 0.003ms returns 0
T31C8 000:273.834 JLINK_WriteReg(R9, 0x2000016C)
T31C8 000:273.837 - 0.003ms returns 0
T31C8 000:273.841 JLINK_WriteReg(R10, 0x00000000)
T31C8 000:273.845 - 0.003ms returns 0
T31C8 000:273.849 JLINK_WriteReg(R11, 0x00000000)
T31C8 000:273.852 - 0.003ms returns 0
T31C8 000:273.856 JLINK_WriteReg(R12, 0x00000000)
T31C8 000:273.860 - 0.003ms returns 0
T31C8 000:273.864 JLINK_WriteReg(R13 (SP), 0x20001000)
T31C8 000:273.868 - 0.003ms returns 0
T31C8 000:273.872 JLINK_WriteReg(R14, 0x20000001)
T31C8 000:273.875 - 0.003ms returns 0
T31C8 000:273.879 JLINK_WriteReg(R15 (PC), 0x20000020)
T31C8 000:273.883 - 0.003ms returns 0
T31C8 000:273.887 JLINK_WriteReg(XPSR, 0x01000000)
T31C8 000:273.890 - 0.003ms returns 0
T31C8 000:273.894 JLINK_WriteReg(MSP, 0x20001000)
T31C8 000:273.899 - 0.004ms returns 0
T31C8 000:273.903 JLINK_WriteReg(PSP, 0x20001000)
T31C8 000:273.906 - 0.003ms returns 0
T31C8 000:273.910 JLINK_WriteReg(CFBP, 0x00000000)
T31C8 000:273.914 - 0.003ms returns 0
T31C8 000:273.918 JLINK_SetBPEx(Addr = 0x20000000, Type = 0xFFFFFFF2)
T31C8 000:273.922 - 0.004ms returns 0x00000006
T31C8 000:273.926 JLINK_Go()
T31C8 000:273.934   CPU_ReadMem(4 bytes @ 0xE0001000)
T31C8 000:276.996 - 3.069ms
T31C8 000:277.002 JLINK_IsHalted()
T31C8 000:279.628   CPU_ReadMem(2 bytes @ 0x20000000)
T31C8 000:280.003 - 3.000ms returns TRUE
T31C8 000:280.012 JLINK_ReadReg(R15 (PC))
T31C8 000:280.016 - 0.004ms returns 0x20000000
T31C8 000:280.021 JLINK_ClrBPEx(BPHandle = 0x00000006)
T31C8 000:280.024 - 0.003ms returns 0x00
T31C8 000:280.029 JLINK_ReadReg(R0)
T31C8 000:280.034 - 0.005ms returns 0x00000001
T31C8 000:280.038 JLINK_HasError()
T31C8 000:280.043 JLINK_WriteReg(R0, 0x0800B000)
T31C8 000:280.047 - 0.004ms returns 0
T31C8 000:280.051 JLINK_WriteReg(R1, 0x00000800)
T31C8 000:280.056 - 0.004ms returns 0
T31C8 000:280.060 JLINK_WriteReg(R2, 0x000000FF)
T31C8 000:280.064 - 0.003ms returns 0
T31C8 000:280.068 JLINK_WriteReg(R3, 0x00000000)
T31C8 000:280.071 - 0.003ms returns 0
T31C8 000:280.076 JLINK_WriteReg(R4, 0x00000000)
T31C8 000:280.081 - 0.005ms returns 0
T31C8 000:280.088 JLINK_WriteReg(R5, 0x00000000)
T31C8 000:280.092 - 0.003ms returns 0
T31C8 000:280.097 JLINK_WriteReg(R6, 0x00000000)
T31C8 000:280.101 - 0.003ms returns 0
T31C8 000:280.106 JLINK_WriteReg(R7, 0x00000000)
T31C8 000:280.109 - 0.003ms returns 0
T31C8 000:280.114 JLINK_WriteReg(R8, 0x00000000)
T31C8 000:280.118 - 0.003ms returns 0
T31C8 000:280.123 JLINK_WriteReg(R9, 0x2000016C)
T31C8 000:280.127 - 0.003ms returns 0
T31C8 000:280.131 JLINK_WriteReg(R10, 0x00000000)
T31C8 000:280.135 - 0.003ms returns 0
T31C8 000:280.140 JLINK_WriteReg(R11, 0x00000000)
T31C8 000:280.144 - 0.003ms returns 0
T31C8 000:280.149 JLINK_WriteReg(R12, 0x00000000)
T31C8 000:280.152 - 0.003ms returns 0
T31C8 000:280.157 JLINK_WriteReg(R13 (SP), 0x20001000)
T31C8 000:280.161 - 0.003ms returns 0
T31C8 000:280.166 JLINK_WriteReg(R14, 0x20000001)
T31C8 000:280.170 - 0.003ms returns 0
T31C8 000:280.198 JLINK_WriteReg(R15 (PC), 0x200000B8)
T31C8 000:280.204 - 0.005ms returns 0
T31C8 000:280.208 JLINK_WriteReg(XPSR, 0x01000000)
T31C8 000:280.212 - 0.003ms returns 0
T31C8 000:280.216 JLINK_WriteReg(MSP, 0x20001000)
T31C8 000:280.220 - 0.003ms returns 0
T31C8 000:280.224 JLINK_WriteReg(PSP, 0x20001000)
T31C8 000:280.229 - 0.005ms returns 0
T31C8 000:280.233 JLINK_WriteReg(CFBP, 0x00000000)
T31C8 000:280.237 - 0.003ms returns 0
T31C8 000:280.241 JLINK_SetBPEx(Addr = 0x20000000, Type = 0xFFFFFFF2)
T31C8 000:280.245 - 0.004ms returns 0x00000007
T31C8 000:280.249 JLINK_Go()
T31C8 000:280.256   CPU_ReadMem(4 bytes @ 0xE0001000)
T31C8 000:283.278 - 3.029ms
T31C8 000:283.284 JLINK_IsHalted()
T31C8 000:283.565 - 0.280ms returns FALSE
T31C8 000:283.570 JLINK_HasError()
T31C8 000:285.601 JLINK_IsHalted()
T31C8 000:285.893 - 0.291ms returns FALSE
T31C8 000:285.899 JLINK_HasError()
T31C8 000:287.563 JLINK_IsHalted()
T31C8 000:287.916 - 0.350ms returns FALSE
T31C8 000:287.927 JLINK_HasError()
T31C8 000:289.604 JLINK_IsHalted()
T31C8 000:289.919 - 0.315ms returns FALSE
T31C8 000:289.925 JLINK_HasError()
T31C8 000:291.610 JLINK_IsHalted()
T31C8 000:291.906 - 0.294ms returns FALSE
T31C8 000:291.932 JLINK_HasError()
T31C8 000:293.607 JLINK_IsHalted()
T31C8 000:293.901 - 0.295ms returns FALSE
T31C8 000:293.906 JLINK_HasError()
T31C8 000:295.905 JLINK_IsHalted()
T31C8 000:296.354 - 0.448ms returns FALSE
T31C8 000:296.372 JLINK_HasError()
T31C8 000:298.296 JLINK_IsHalted()
T31C8 000:298.619 - 0.322ms returns FALSE
T31C8 000:298.624 JLINK_HasError()
T31C8 000:300.664 JLINK_IsHalted()
T31C8 000:301.203 - 0.539ms returns FALSE
T31C8 000:301.210 JLINK_HasError()
T31C8 000:302.689 JLINK_IsHalted()
T31C8 000:303.198 - 0.509ms returns FALSE
T31C8 000:303.203 JLINK_HasError()
T31C8 000:304.917 JLINK_IsHalted()
T31C8 000:307.858   CPU_ReadMem(2 bytes @ 0x20000000)
T31C8 000:308.276 - 3.358ms returns TRUE
T31C8 000:308.284 JLINK_ReadReg(R15 (PC))
T31C8 000:308.290 - 0.006ms returns 0x20000000
T31C8 000:308.295 JLINK_ClrBPEx(BPHandle = 0x00000007)
T31C8 000:308.299 - 0.004ms returns 0x00
T31C8 000:308.304 JLINK_ReadReg(R0)
T31C8 000:308.309 - 0.005ms returns 0x00000000
T31C8 000:308.682 JLINK_HasError()
T31C8 000:308.689 JLINK_WriteReg(R0, 0x0800B800)
T31C8 000:308.694 - 0.004ms returns 0
T31C8 000:308.699 JLINK_WriteReg(R1, 0x00000800)
T31C8 000:308.702 - 0.003ms returns 0
T31C8 000:308.706 JLINK_WriteReg(R2, 0x000000FF)
T31C8 000:308.710 - 0.003ms returns 0
T31C8 000:308.714 JLINK_WriteReg(R3, 0x00000000)
T31C8 000:308.718 - 0.003ms returns 0
T31C8 000:308.722 JLINK_WriteReg(R4, 0x00000000)
T31C8 000:308.725 - 0.003ms returns 0
T31C8 000:308.729 JLINK_WriteReg(R5, 0x00000000)
T31C8 000:308.743 - 0.014ms returns 0
T31C8 000:308.747 JLINK_WriteReg(R6, 0x00000000)
T31C8 000:308.751 - 0.003ms returns 0
T31C8 000:308.755 JLINK_WriteReg(R7, 0x00000000)
T31C8 000:308.758 - 0.003ms returns 0
T31C8 000:308.762 JLINK_WriteReg(R8, 0x00000000)
T31C8 000:308.766 - 0.003ms returns 0
T31C8 000:308.770 JLINK_WriteReg(R9, 0x2000016C)
T31C8 000:308.774 - 0.003ms returns 0
T31C8 000:308.823 JLINK_WriteReg(R10, 0x00000000)
T31C8 000:308.827 - 0.003ms returns 0
T31C8 000:308.831 JLINK_WriteReg(R11, 0x00000000)
T31C8 000:308.835 - 0.003ms returns 0
T31C8 000:308.839 JLINK_WriteReg(R12, 0x00000000)
T31C8 000:308.843 - 0.003ms returns 0
T31C8 000:308.847 JLINK_WriteReg(R13 (SP), 0x20001000)
T31C8 000:308.851 - 0.004ms returns 0
T31C8 000:308.855 JLINK_WriteReg(R14, 0x20000001)
T31C8 000:308.859 - 0.003ms returns 0
T31C8 000:308.863 JLINK_WriteReg(R15 (PC), 0x20000020)
T31C8 000:308.866 - 0.003ms returns 0
T31C8 000:308.870 JLINK_WriteReg(XPSR, 0x01000000)
T31C8 000:308.874 - 0.003ms returns 0
T31C8 000:308.878 JLINK_WriteReg(MSP, 0x20001000)
T31C8 000:308.882 - 0.003ms returns 0
T31C8 000:308.886 JLINK_WriteReg(PSP, 0x20001000)
T31C8 000:308.889 - 0.003ms returns 0
T31C8 000:308.893 JLINK_WriteReg(CFBP, 0x00000000)
T31C8 000:308.897 - 0.003ms returns 0
T31C8 000:308.901 JLINK_SetBPEx(Addr = 0x20000000, Type = 0xFFFFFFF2)
T31C8 000:308.906 - 0.005ms returns 0x00000008
T31C8 000:308.910 JLINK_Go()
T31C8 000:308.919   CPU_ReadMem(4 bytes @ 0xE0001000)
T31C8 000:311.939 - 3.028ms
T31C8 000:311.945 JLINK_IsHalted()
T31C8 000:314.577   CPU_ReadMem(2 bytes @ 0x20000000)
T31C8 000:314.981 - 3.036ms returns TRUE
T31C8 000:314.987 JLINK_ReadReg(R15 (PC))
T31C8 000:314.991 - 0.004ms returns 0x20000000
T31C8 000:314.995 JLINK_ClrBPEx(BPHandle = 0x00000008)
T31C8 000:314.999 - 0.003ms returns 0x00
T31C8 000:315.004 JLINK_ReadReg(R0)
T31C8 000:315.008 - 0.003ms returns 0x00000001
T31C8 000:315.012 JLINK_HasError()
T31C8 000:315.017 JLINK_WriteReg(R0, 0x0800B800)
T31C8 000:315.021 - 0.004ms returns 0
T31C8 000:315.025 JLINK_WriteReg(R1, 0x00000800)
T31C8 000:315.029 - 0.003ms returns 0
T31C8 000:315.033 JLINK_WriteReg(R2, 0x000000FF)
T31C8 000:315.036 - 0.003ms returns 0
T31C8 000:315.040 JLINK_WriteReg(R3, 0x00000000)
T31C8 000:315.044 - 0.003ms returns 0
T31C8 000:315.048 JLINK_WriteReg(R4, 0x00000000)
T31C8 000:315.051 - 0.003ms returns 0
T31C8 000:315.055 JLINK_WriteReg(R5, 0x00000000)
T31C8 000:315.059 - 0.003ms returns 0
T31C8 000:315.063 JLINK_WriteReg(R6, 0x00000000)
T31C8 000:315.066 - 0.003ms returns 0
T31C8 000:315.070 JLINK_WriteReg(R7, 0x00000000)
T31C8 000:315.074 - 0.003ms returns 0
T31C8 000:315.078 JLINK_WriteReg(R8, 0x00000000)
T31C8 000:315.081 - 0.003ms returns 0
T31C8 000:315.085 JLINK_WriteReg(R9, 0x2000016C)
T31C8 000:315.089 - 0.003ms returns 0
T31C8 000:315.093 JLINK_WriteReg(R10, 0x00000000)
T31C8 000:315.096 - 0.003ms returns 0
T31C8 000:315.100 JLINK_WriteReg(R11, 0x00000000)
T31C8 000:315.104 - 0.003ms returns 0
T31C8 000:315.108 JLINK_WriteReg(R12, 0x00000000)
T31C8 000:315.111 - 0.003ms returns 0
T31C8 000:315.115 JLINK_WriteReg(R13 (SP), 0x20001000)
T31C8 000:315.119 - 0.003ms returns 0
T31C8 000:315.123 JLINK_WriteReg(R14, 0x20000001)
T31C8 000:315.127 - 0.003ms returns 0
T31C8 000:315.131 JLINK_WriteReg(R15 (PC), 0x200000B8)
T31C8 000:315.134 - 0.003ms returns 0
T31C8 000:315.138 JLINK_WriteReg(XPSR, 0x01000000)
T31C8 000:315.142 - 0.003ms returns 0
T31C8 000:315.146 JLINK_WriteReg(MSP, 0x20001000)
T31C8 000:315.149 - 0.003ms returns 0
T31C8 000:315.153 JLINK_WriteReg(PSP, 0x20001000)
T31C8 000:315.157 - 0.003ms returns 0
T31C8 000:315.161 JLINK_WriteReg(CFBP, 0x00000000)
T31C8 000:315.164 - 0.003ms returns 0
T31C8 000:315.169 JLINK_SetBPEx(Addr = 0x20000000, Type = 0xFFFFFFF2)
T31C8 000:315.172 - 0.003ms returns 0x00000009
T31C8 000:315.176 JLINK_Go()
T31C8 000:315.182   CPU_ReadMem(4 bytes @ 0xE0001000)
T31C8 000:318.138 - 2.961ms
T31C8 000:318.145 JLINK_IsHalted()
T31C8 000:318.455 - 0.310ms returns FALSE
T31C8 000:318.461 JLINK_HasError()
T31C8 000:320.514 JLINK_IsHalted()
T31C8 000:320.852 - 0.338ms returns FALSE
T31C8 000:320.858 JLINK_HasError()
T31C8 000:322.865 JLINK_IsHalted()
T31C8 000:323.246 - 0.382ms returns FALSE
T31C8 000:323.254 JLINK_HasError()
T31C8 000:324.895 JLINK_IsHalted()
T31C8 000:325.248 - 0.354ms returns FALSE
T31C8 000:325.253 JLINK_HasError()
T31C8 000:327.289 JLINK_IsHalted()
T31C8 000:327.620 - 0.331ms returns FALSE
T31C8 000:327.626 JLINK_HasError()
T31C8 000:329.246 JLINK_IsHalted()
T31C8 000:329.519 - 0.273ms returns FALSE
T31C8 000:329.526 JLINK_HasError()
T31C8 000:331.558 JLINK_IsHalted()
T31C8 000:331.918 - 0.360ms returns FALSE
T31C8 000:331.932 JLINK_HasError()
T31C8 000:334.050 JLINK_IsHalted()
T31C8 000:334.322 - 0.274ms returns FALSE
T31C8 000:334.329 JLINK_HasError()
T31C8 000:335.732 JLINK_IsHalted()
T31C8 000:336.208 - 0.477ms returns FALSE
T31C8 000:336.213 JLINK_HasError()
T31C8 000:338.230 JLINK_IsHalted()
T31C8 000:338.734 - 0.505ms returns FALSE
T31C8 000:338.739 JLINK_HasError()
T31C8 000:340.225 JLINK_IsHalted()
T31C8 000:342.976   CPU_ReadMem(2 bytes @ 0x20000000)
T31C8 000:343.410 - 3.186ms returns TRUE
T31C8 000:343.416 JLINK_ReadReg(R15 (PC))
T31C8 000:343.422 - 0.006ms returns 0x20000000
T31C8 000:343.426 JLINK_ClrBPEx(BPHandle = 0x00000009)
T31C8 000:343.431 - 0.004ms returns 0x00
T31C8 000:343.435 JLINK_ReadReg(R0)
T31C8 000:343.439 - 0.003ms returns 0x00000000
T31C8 000:343.777 JLINK_HasError()
T31C8 000:343.784 JLINK_WriteReg(R0, 0x0800C000)
T31C8 000:343.789 - 0.004ms returns 0
T31C8 000:343.793 JLINK_WriteReg(R1, 0x00000800)
T31C8 000:343.797 - 0.003ms returns 0
T31C8 000:343.801 JLINK_WriteReg(R2, 0x000000FF)
T31C8 000:343.805 - 0.003ms returns 0
T31C8 000:343.809 JLINK_WriteReg(R3, 0x00000000)
T31C8 000:343.812 - 0.003ms returns 0
T31C8 000:343.816 JLINK_WriteReg(R4, 0x00000000)
T31C8 000:343.820 - 0.003ms returns 0
T31C8 000:343.824 JLINK_WriteReg(R5, 0x00000000)
T31C8 000:343.828 - 0.003ms returns 0
T31C8 000:343.832 JLINK_WriteReg(R6, 0x00000000)
T31C8 000:343.835 - 0.003ms returns 0
T31C8 000:343.839 JLINK_WriteReg(R7, 0x00000000)
T31C8 000:343.843 - 0.003ms returns 0
T31C8 000:343.847 JLINK_WriteReg(R8, 0x00000000)
T31C8 000:343.850 - 0.003ms returns 0
T31C8 000:343.854 JLINK_WriteReg(R9, 0x2000016C)
T31C8 000:343.858 - 0.003ms returns 0
T31C8 000:343.862 JLINK_WriteReg(R10, 0x00000000)
T31C8 000:343.865 - 0.003ms returns 0
T31C8 000:343.869 JLINK_WriteReg(R11, 0x00000000)
T31C8 000:343.873 - 0.003ms returns 0
T31C8 000:343.877 JLINK_WriteReg(R12, 0x00000000)
T31C8 000:343.881 - 0.003ms returns 0
T31C8 000:343.885 JLINK_WriteReg(R13 (SP), 0x20001000)
T31C8 000:343.889 - 0.003ms returns 0
T31C8 000:343.893 JLINK_WriteReg(R14, 0x20000001)
T31C8 000:343.896 - 0.003ms returns 0
T31C8 000:343.900 JLINK_WriteReg(R15 (PC), 0x20000020)
T31C8 000:343.904 - 0.003ms returns 0
T31C8 000:343.908 JLINK_WriteReg(XPSR, 0x01000000)
T31C8 000:343.911 - 0.003ms returns 0
T31C8 000:343.915 JLINK_WriteReg(MSP, 0x20001000)
T31C8 000:343.919 - 0.003ms returns 0
T31C8 000:343.923 JLINK_WriteReg(PSP, 0x20001000)
T31C8 000:343.927 - 0.004ms returns 0
T31C8 000:343.932 JLINK_WriteReg(CFBP, 0x00000000)
T31C8 000:343.935 - 0.003ms returns 0
T31C8 000:343.940 JLINK_SetBPEx(Addr = 0x20000000, Type = 0xFFFFFFF2)
T31C8 000:343.944 - 0.005ms returns 0x0000000A
T31C8 000:343.948 JLINK_Go()
T31C8 000:343.958   CPU_ReadMem(4 bytes @ 0xE0001000)
T31C8 000:346.960 - 3.011ms
T31C8 000:346.967 JLINK_IsHalted()
T31C8 000:349.513   CPU_ReadMem(2 bytes @ 0x20000000)
T31C8 000:349.895 - 2.927ms returns TRUE
T31C8 000:349.900 JLINK_ReadReg(R15 (PC))
T31C8 000:349.904 - 0.004ms returns 0x20000000
T31C8 000:349.909 JLINK_ClrBPEx(BPHandle = 0x0000000A)
T31C8 000:349.913 - 0.004ms returns 0x00
T31C8 000:349.917 JLINK_ReadReg(R0)
T31C8 000:349.922 - 0.004ms returns 0x00000001
T31C8 000:349.926 JLINK_HasError()
T31C8 000:349.931 JLINK_WriteReg(R0, 0x0800C000)
T31C8 000:349.935 - 0.004ms returns 0
T31C8 000:349.939 JLINK_WriteReg(R1, 0x00000800)
T31C8 000:349.943 - 0.003ms returns 0
T31C8 000:349.947 JLINK_WriteReg(R2, 0x000000FF)
T31C8 000:349.951 - 0.003ms returns 0
T31C8 000:349.955 JLINK_WriteReg(R3, 0x00000000)
T31C8 000:349.959 - 0.003ms returns 0
T31C8 000:349.963 JLINK_WriteReg(R4, 0x00000000)
T31C8 000:349.967 - 0.003ms returns 0
T31C8 000:349.971 JLINK_WriteReg(R5, 0x00000000)
T31C8 000:349.978 - 0.007ms returns 0
T31C8 000:349.984 JLINK_WriteReg(R6, 0x00000000)
T31C8 000:349.988 - 0.003ms returns 0
T31C8 000:349.992 JLINK_WriteReg(R7, 0x00000000)
T31C8 000:349.996 - 0.003ms returns 0
T31C8 000:350.000 JLINK_WriteReg(R8, 0x00000000)
T31C8 000:350.003 - 0.003ms returns 0
T31C8 000:350.008 JLINK_WriteReg(R9, 0x2000016C)
T31C8 000:350.011 - 0.003ms returns 0
T31C8 000:350.015 JLINK_WriteReg(R10, 0x00000000)
T31C8 000:350.019 - 0.003ms returns 0
T31C8 000:350.023 JLINK_WriteReg(R11, 0x00000000)
T31C8 000:350.027 - 0.003ms returns 0
T31C8 000:350.031 JLINK_WriteReg(R12, 0x00000000)
T31C8 000:350.035 - 0.003ms returns 0
T31C8 000:350.039 JLINK_WriteReg(R13 (SP), 0x20001000)
T31C8 000:350.043 - 0.004ms returns 0
T31C8 000:350.047 JLINK_WriteReg(R14, 0x20000001)
T31C8 000:350.051 - 0.003ms returns 0
T31C8 000:350.055 JLINK_WriteReg(R15 (PC), 0x200000B8)
T31C8 000:350.059 - 0.003ms returns 0
T31C8 000:350.064 JLINK_WriteReg(XPSR, 0x01000000)
T31C8 000:350.067 - 0.003ms returns 0
T31C8 000:350.071 JLINK_WriteReg(MSP, 0x20001000)
T31C8 000:350.075 - 0.003ms returns 0
T31C8 000:350.079 JLINK_WriteReg(PSP, 0x20001000)
T31C8 000:350.083 - 0.003ms returns 0
T31C8 000:350.087 JLINK_WriteReg(CFBP, 0x00000000)
T31C8 000:350.091 - 0.003ms returns 0
T31C8 000:350.096 JLINK_SetBPEx(Addr = 0x20000000, Type = 0xFFFFFFF2)
T31C8 000:350.100 - 0.004ms returns 0x0000000B
T31C8 000:350.104 JLINK_Go()
T31C8 000:350.111   CPU_ReadMem(4 bytes @ 0xE0001000)
T31C8 000:353.053 - 2.948ms
T31C8 000:353.058 JLINK_IsHalted()
T31C8 000:353.321 - 0.263ms returns FALSE
T31C8 000:353.327 JLINK_HasError()
T31C8 000:354.765 JLINK_IsHalted()
T31C8 000:355.137 - 0.372ms returns FALSE
T31C8 000:355.142 JLINK_HasError()
T31C8 000:357.157 JLINK_IsHalted()
T31C8 000:357.593 - 0.437ms returns FALSE
T31C8 000:357.599 JLINK_HasError()
T31C8 000:359.647 JLINK_IsHalted()
T31C8 000:359.943 - 0.297ms returns FALSE
T31C8 000:359.950 JLINK_HasError()
T31C8 000:361.988 JLINK_IsHalted()
T31C8 000:362.454 - 0.466ms returns FALSE
T31C8 000:362.461 JLINK_HasError()
T31C8 000:363.990 JLINK_IsHalted()
T31C8 000:364.346 - 0.357ms returns FALSE
T31C8 000:364.351 JLINK_HasError()
T31C8 000:367.012 JLINK_IsHalted()
T31C8 000:367.453 - 0.440ms returns FALSE
T31C8 000:367.458 JLINK_HasError()
T31C8 000:369.493 JLINK_IsHalted()
T31C8 000:369.928 - 0.436ms returns FALSE
T31C8 000:369.933 JLINK_HasError()
T31C8 000:371.507 JLINK_IsHalted()
T31C8 000:371.918 - 0.413ms returns FALSE
T31C8 000:371.923 JLINK_HasError()
T31C8 000:373.917 JLINK_IsHalted()
T31C8 000:374.322 - 0.404ms returns FALSE
T31C8 000:374.326 JLINK_HasError()
T31C8 000:375.968 JLINK_IsHalted()
T31C8 000:378.774   CPU_ReadMem(2 bytes @ 0x20000000)
T31C8 000:379.067 - 3.100ms returns TRUE
T31C8 000:379.076 JLINK_ReadReg(R15 (PC))
T31C8 000:379.081 - 0.005ms returns 0x20000000
T31C8 000:379.086 JLINK_ClrBPEx(BPHandle = 0x0000000B)
T31C8 000:379.090 - 0.004ms returns 0x00
T31C8 000:379.094 JLINK_ReadReg(R0)
T31C8 000:379.098 - 0.003ms returns 0x00000000
T31C8 000:379.515 JLINK_HasError()
T31C8 000:379.523 JLINK_WriteReg(R0, 0x0800C800)
T31C8 000:379.528 - 0.004ms returns 0
T31C8 000:379.532 JLINK_WriteReg(R1, 0x00000800)
T31C8 000:379.536 - 0.003ms returns 0
T31C8 000:379.540 JLINK_WriteReg(R2, 0x000000FF)
T31C8 000:379.544 - 0.003ms returns 0
T31C8 000:379.548 JLINK_WriteReg(R3, 0x00000000)
T31C8 000:379.552 - 0.003ms returns 0
T31C8 000:379.556 JLINK_WriteReg(R4, 0x00000000)
T31C8 000:379.560 - 0.003ms returns 0
T31C8 000:379.564 JLINK_WriteReg(R5, 0x00000000)
T31C8 000:379.568 - 0.003ms returns 0
T31C8 000:379.572 JLINK_WriteReg(R6, 0x00000000)
T31C8 000:379.576 - 0.003ms returns 0
T31C8 000:379.580 JLINK_WriteReg(R7, 0x00000000)
T31C8 000:379.584 - 0.003ms returns 0
T31C8 000:379.588 JLINK_WriteReg(R8, 0x00000000)
T31C8 000:379.592 - 0.003ms returns 0
T31C8 000:379.596 JLINK_WriteReg(R9, 0x2000016C)
T31C8 000:379.600 - 0.003ms returns 0
T31C8 000:379.604 JLINK_WriteReg(R10, 0x00000000)
T31C8 000:379.610 - 0.006ms returns 0
T31C8 000:379.616 JLINK_WriteReg(R11, 0x00000000)
T31C8 000:379.620 - 0.003ms returns 0
T31C8 000:379.624 JLINK_WriteReg(R12, 0x00000000)
T31C8 000:379.628 - 0.003ms returns 0
T31C8 000:379.632 JLINK_WriteReg(R13 (SP), 0x20001000)
T31C8 000:379.636 - 0.004ms returns 0
T31C8 000:379.640 JLINK_WriteReg(R14, 0x20000001)
T31C8 000:379.644 - 0.003ms returns 0
T31C8 000:379.648 JLINK_WriteReg(R15 (PC), 0x20000020)
T31C8 000:379.652 - 0.003ms returns 0
T31C8 000:379.656 JLINK_WriteReg(XPSR, 0x01000000)
T31C8 000:379.660 - 0.003ms returns 0
T31C8 000:379.664 JLINK_WriteReg(MSP, 0x20001000)
T31C8 000:379.668 - 0.003ms returns 0
T31C8 000:379.672 JLINK_WriteReg(PSP, 0x20001000)
T31C8 000:379.676 - 0.003ms returns 0
T31C8 000:379.680 JLINK_WriteReg(CFBP, 0x00000000)
T31C8 000:379.684 - 0.003ms returns 0
T31C8 000:379.689 JLINK_SetBPEx(Addr = 0x20000000, Type = 0xFFFFFFF2)
T31C8 000:379.693 - 0.004ms returns 0x0000000C
T31C8 000:379.697 JLINK_Go()
T31C8 000:379.705   CPU_ReadMem(4 bytes @ 0xE0001000)
T31C8 000:382.657 - 2.959ms
T31C8 000:382.662 JLINK_IsHalted()
T31C8 000:385.065   CPU_ReadMem(2 bytes @ 0x20000000)
T31C8 000:385.324 - 2.661ms returns TRUE
T31C8 000:385.331 JLINK_ReadReg(R15 (PC))
T31C8 000:385.335 - 0.004ms returns 0x20000000
T31C8 000:385.341 JLINK_ClrBPEx(BPHandle = 0x0000000C)
T31C8 000:385.345 - 0.004ms returns 0x00
T31C8 000:385.349 JLINK_ReadReg(R0)
T31C8 000:385.353 - 0.003ms returns 0x00000001
T31C8 000:385.358 JLINK_HasError()
T31C8 000:385.384 JLINK_WriteReg(R0, 0x0800C800)
T31C8 000:385.389 - 0.004ms returns 0
T31C8 000:385.393 JLINK_WriteReg(R1, 0x00000800)
T31C8 000:385.397 - 0.003ms returns 0
T31C8 000:385.401 JLINK_WriteReg(R2, 0x000000FF)
T31C8 000:385.404 - 0.003ms returns 0
T31C8 000:385.409 JLINK_WriteReg(R3, 0x00000000)
T31C8 000:385.412 - 0.003ms returns 0
T31C8 000:385.417 JLINK_WriteReg(R4, 0x00000000)
T31C8 000:385.420 - 0.003ms returns 0
T31C8 000:385.424 JLINK_WriteReg(R5, 0x00000000)
T31C8 000:385.428 - 0.003ms returns 0
T31C8 000:385.432 JLINK_WriteReg(R6, 0x00000000)
T31C8 000:385.436 - 0.003ms returns 0
T31C8 000:385.440 JLINK_WriteReg(R7, 0x00000000)
T31C8 000:385.444 - 0.003ms returns 0
T31C8 000:385.448 JLINK_WriteReg(R8, 0x00000000)
T31C8 000:385.452 - 0.003ms returns 0
T31C8 000:385.456 JLINK_WriteReg(R9, 0x2000016C)
T31C8 000:385.460 - 0.003ms returns 0
T31C8 000:385.464 JLINK_WriteReg(R10, 0x00000000)
T31C8 000:385.468 - 0.003ms returns 0
T31C8 000:385.472 JLINK_WriteReg(R11, 0x00000000)
T31C8 000:385.476 - 0.003ms returns 0
T31C8 000:385.480 JLINK_WriteReg(R12, 0x00000000)
T31C8 000:385.483 - 0.003ms returns 0
T31C8 000:385.488 JLINK_WriteReg(R13 (SP), 0x20001000)
T31C8 000:385.491 - 0.003ms returns 0
T31C8 000:385.496 JLINK_WriteReg(R14, 0x20000001)
T31C8 000:385.499 - 0.003ms returns 0
T31C8 000:385.504 JLINK_WriteReg(R15 (PC), 0x200000B8)
T31C8 000:385.507 - 0.003ms returns 0
T31C8 000:385.512 JLINK_WriteReg(XPSR, 0x01000000)
T31C8 000:385.515 - 0.003ms returns 0
T31C8 000:385.519 JLINK_WriteReg(MSP, 0x20001000)
T31C8 000:385.523 - 0.003ms returns 0
T31C8 000:385.527 JLINK_WriteReg(PSP, 0x20001000)
T31C8 000:385.531 - 0.003ms returns 0
T31C8 000:385.535 JLINK_WriteReg(CFBP, 0x00000000)
T31C8 000:385.539 - 0.003ms returns 0
T31C8 000:385.544 JLINK_SetBPEx(Addr = 0x20000000, Type = 0xFFFFFFF2)
T31C8 000:385.548 - 0.004ms returns 0x0000000D
T31C8 000:385.552 JLINK_Go()
T31C8 000:385.558   CPU_ReadMem(4 bytes @ 0xE0001000)
T31C8 000:388.630 - 3.076ms
T31C8 000:388.638 JLINK_IsHalted()
T31C8 000:388.943 - 0.304ms returns FALSE
T31C8 000:388.948 JLINK_HasError()
T31C8 000:390.995 JLINK_IsHalted()
T31C8 000:391.322 - 0.329ms returns FALSE
T31C8 000:391.327 JLINK_HasError()
T31C8 000:392.985 JLINK_IsHalted()
T31C8 000:393.322 - 0.337ms returns FALSE
T31C8 000:393.327 JLINK_HasError()
T31C8 000:394.991 JLINK_IsHalted()
T31C8 000:395.312 - 0.320ms returns FALSE
T31C8 000:395.323 JLINK_HasError()
T31C8 000:397.014 JLINK_IsHalted()
T31C8 000:397.298 - 0.285ms returns FALSE
T31C8 000:397.305 JLINK_HasError()
T31C8 000:399.357 JLINK_IsHalted()
T31C8 000:399.744 - 0.386ms returns FALSE
T31C8 000:399.749 JLINK_HasError()
T31C8 000:401.770 JLINK_IsHalted()
T31C8 000:402.120 - 0.351ms returns FALSE
T31C8 000:402.125 JLINK_HasError()
T31C8 000:403.784 JLINK_IsHalted()
T31C8 000:404.129 - 0.346ms returns FALSE
T31C8 000:404.134 JLINK_HasError()
T31C8 000:406.008 JLINK_IsHalted()
T31C8 000:406.450 - 0.442ms returns FALSE
T31C8 000:406.455 JLINK_HasError()
T31C8 000:408.024 JLINK_IsHalted()
T31C8 000:408.450 - 0.428ms returns FALSE
T31C8 000:408.455 JLINK_HasError()
T31C8 000:410.231 JLINK_IsHalted()
T31C8 000:412.719   CPU_ReadMem(2 bytes @ 0x20000000)
T31C8 000:412.998 - 2.766ms returns TRUE
T31C8 000:413.003 JLINK_ReadReg(R15 (PC))
T31C8 000:413.009 - 0.005ms returns 0x20000000
T31C8 000:413.013 JLINK_ClrBPEx(BPHandle = 0x0000000D)
T31C8 000:413.017 - 0.004ms returns 0x00
T31C8 000:413.022 JLINK_ReadReg(R0)
T31C8 000:413.026 - 0.003ms returns 0x00000000
T31C8 000:413.300 JLINK_HasError()
T31C8 000:413.308 JLINK_WriteReg(R0, 0x0800D000)
T31C8 000:413.313 - 0.004ms returns 0
T31C8 000:413.317 JLINK_WriteReg(R1, 0x00000800)
T31C8 000:413.321 - 0.003ms returns 0
T31C8 000:413.325 JLINK_WriteReg(R2, 0x000000FF)
T31C8 000:413.329 - 0.003ms returns 0
T31C8 000:413.333 JLINK_WriteReg(R3, 0x00000000)
T31C8 000:413.336 - 0.003ms returns 0
T31C8 000:413.341 JLINK_WriteReg(R4, 0x00000000)
T31C8 000:413.344 - 0.003ms returns 0
T31C8 000:413.349 JLINK_WriteReg(R5, 0x00000000)
T31C8 000:413.352 - 0.003ms returns 0
T31C8 000:413.356 JLINK_WriteReg(R6, 0x00000000)
T31C8 000:413.360 - 0.003ms returns 0
T31C8 000:413.364 JLINK_WriteReg(R7, 0x00000000)
T31C8 000:413.368 - 0.003ms returns 0
T31C8 000:413.372 JLINK_WriteReg(R8, 0x00000000)
T31C8 000:413.376 - 0.003ms returns 0
T31C8 000:413.380 JLINK_WriteReg(R9, 0x2000016C)
T31C8 000:413.384 - 0.003ms returns 0
